# MHz S MA R 50
!   freq        S11              S21              S12              S22       
2000.000  0.12260   12.00  0.94986  -54.45  0.94844  -54.10  0.12340   12.23
2000.801  0.12839   12.55  0.94935  -54.25  0.95149  -54.32  0.12634   12.30
2001.602  0.12690   11.52  0.95123  -54.20  0.94945  -54.07  0.12868   11.36
2002.402  0.12884   10.19  0.95129  -54.87  0.95145  -54.61  0.12924   10.72
2003.203  0.12651   10.06  0.95128  -53.80  0.94959  -54.45  0.12706    9.60
2004.004  0.12701    8.74  0.94586  -54.21  0.94899  -54.28  0.12723    8.76
2004.805  0.12828    8.71  0.95295  -54.26  0.95339  -54.43  0.12762    8.11
2005.606  0.12530    6.40  0.95144  -54.15  0.95211  -54.19  0.12734    7.01
2006.406  0.12781    6.36  0.95294  -53.98  0.95031  -54.03  0.12685    5.74
2007.207  0.12650    5.17  0.95334  -54.66  0.95290  -54.82  0.12687    5.12
2008.008  0.12672    4.51  0.95289  -54.48  0.95392  -54.25  0.12608    3.91
2008.809  0.12527    3.52  0.95203  -54.56  0.95161  -54.72  0.12633    3.27
2009.610  0.12754    3.28  0.95283  -54.54  0.95309  -54.76  0.12739    2.55
2010.410  0.12775    2.57  0.95445  -54.70  0.95374  -54.35  0.12696    2.27
2011.211  0.12789    2.05  0.95170  -54.55  0.95326  -54.79  0.12793    1.92
2012.012  0.12597   -0.38  0.95358  -54.73  0.95286  -54.75  0.12729    0.46
2012.813  0.12682    0.18  0.95324  -54.98  0.95485  -55.47  0.12699    0.18
2013.614  0.12741   -0.36  0.95489  -54.56  0.95605  -54.81  0.12724   -0.28
2014.414  0.12733   -1.57  0.95356  -54.75  0.95377  -54.97  0.12774   -1.76
2015.215  0.12607   -3.01  0.95481  -54.99  0.95416  -54.85  0.12673   -2.74
2016.016  0.12577   -4.09  0.94579  -55.26  0.94617  -55.62  0.12572   -4.22
2016.817  0.12689   -2.99  0.95586  -55.12  0.95556  -55.41  0.12733   -2.91
2017.618  0.12750   -3.84  0.95492  -55.11  0.95627  -55.26  0.12733   -4.75
2018.418  0.12702   -5.06  0.95520  -55.03  0.95434  -55.12  0.12694   -5.70
2019.219  0.12643   -6.15  0.95501  -55.06  0.95433  -54.98  0.12761   -5.40
2020.020  0.12672   -6.74  0.95488  -54.97  0.95455  -55.37  0.12611   -7.09
2020.821  0.12635   -7.60  0.95586  -55.52  0.95587  -55.66  0.12655   -7.23
2021.622  0.12599   -7.91  0.95456  -55.93  0.95403  -55.52  0.12658   -7.48
2022.422  0.12576   -8.88  0.95395  -54.99  0.95395  -55.48  0.12600   -9.04
2023.223  0.12642   -8.75  0.95633  -55.64  0.95332  -55.39  0.12641   -9.82
2024.024  0.12540   -9.63  0.95446  -55.25  0.95440  -56.08  0.12522  -10.16
2024.825  0.12455  -11.61  0.95499  -55.78  0.95396  -55.71  0.12576  -10.98
2025.626  0.12561  -11.24  0.95620  -56.01  0.95555  -56.06  0.12502  -11.12
2026.426  0.12529  -11.31  0.95420  -56.26  0.95398  -56.37  0.12501  -11.65
2027.227  0.12443  -12.98  0.95386  -55.85  0.95448  -56.01  0.12472  -12.23
2028.028  0.12430  -13.96  0.95359  -55.97  0.95321  -56.32  0.12438  -13.38
2028.829  0.12446  -13.97  0.95456  -55.62  0.95453  -55.92  0.12439  -14.12
2029.630  0.12441  -13.89  0.95222  -56.15  0.95282  -56.05  0.12396  -14.65
2030.430  0.12387  -14.89  0.95228  -56.30  0.95247  -56.10  0.12399  -14.48
2031.231  0.12295  -15.55  0.95367  -56.35  0.95236  -56.09  0.12378  -16.02
2032.032  0.12247  -15.46  0.95256  -56.22  0.95460  -55.93  0.12301  -16.37
2032.833  0.12192  -15.69  0.95273  -56.43  0.95174  -56.53  0.12274  -15.79
2033.634  0.12107  -16.25  0.95142  -56.60  0.95085  -56.47  0.12136  -16.89
2034.434  0.12280  -18.66  0.95128  -56.23  0.94918  -56.56  0.12230  -18.20
2035.235  0.12081  -18.26  0.94929  -56.03  0.94896  -56.72  0.12087  -18.29
2036.036  0.12045  -19.07  0.95227  -56.37  0.95169  -56.62  0.11996  -18.68
2036.837  0.12042  -19.46  0.95058  -56.51  0.94984  -56.42  0.12010  -19.48
2037.638  0.11905  -19.17  0.95005  -56.78  0.95086  -56.95  0.11959  -19.31
2038.438  0.11821  -19.95  0.94818  -56.48  0.94903  -56.51  0.11924  -20.20
2039.239  0.11759  -20.57  0.94968  -56.99  0.94945  -56.62  0.11842  -20.39
2040.040  0.11823  -21.35  0.94897  -56.93  0.94862  -56.89  0.11749  -21.10
2040.841  0.11730  -21.46  0.94803  -56.35  0.94699  -56.61  0.11662  -21.53
2041.642  0.11628  -22.40  0.94711  -57.10  0.94739  -56.69  0.11699  -22.37
2042.442  0.11533  -23.08  0.94608  -56.99  0.94655  -56.76  0.11589  -23.04
2043.243  0.11385  -23.37  0.94610  -57.10  0.94625  -56.77  0.11544  -24.07
2044.044  0.11465  -24.70  0.94175  -56.72  0.94082  -56.92  0.11550  -24.58
2044.845  0.11306  -24.43  0.94324  -56.39  0.94510  -56.55  0.11413  -25.18
2045.646  0.11369  -26.18  0.94648  -56.46  0.94425  -56.69  0.11424  -25.93
2046.446  0.11182  -26.45  0.94351  -57.36  0.94403  -57.19  0.11165  -25.83
2047.247  0.11104  -26.43  0.94353  -57.02  0.94349  -57.20  0.11196  -26.88
2048.048  0.11052  -26.97  0.94101  -56.94  0.94165  -57.36  0.11023  -27.24
2048.849  0.10789  -27.35  0.94326  -56.61  0.94233  -56.94  0.10978  -27.65
2049.650  0.11046  -28.22  0.94008  -57.06  0.94084  -57.12  0.10872  -27.91
2050.450  0.10616  -28.47  0.94128  -56.68  0.94103  -57.22  0.10786  -28.95
2051.251  0.10945  -30.18  0.93734  -57.43  0.93838  -57.75  0.10860  -30.08
2052.052  0.10692  -30.15  0.94032  -57.42  0.94016  -57.22  0.10677  -30.07
2052.853  0.10587  -31.06  0.93888  -57.23  0.93808  -57.41  0.10668  -31.07
2053.654  0.10317  -31.69  0.93840  -57.26  0.93831  -57.36  0.10424  -31.92
2054.454  0.10258  -32.00  0.93672  -56.91  0.93513  -57.66  0.10257  -32.32
2055.255  0.09838  -31.94  0.93685  -57.53  0.93610  -57.27  0.10228  -33.05
2056.056  0.10136  -33.34  0.93549  -57.09  0.93527  -57.60  0.10106  -33.89
2056.857  0.10272  -33.75  0.93616  -57.20  0.93569  -57.20  0.10127  -34.00
2057.658  0.09709  -34.23  0.93590  -57.67  0.93384  -57.86  0.09888  -34.65
2058.458  0.09807  -35.37  0.93226  -57.77  0.93219  -57.65  0.09384  -34.68
2059.259  0.09837  -35.59  0.93213  -56.91  0.93178  -57.11  0.09747  -35.28
2060.060  0.09630  -36.32  0.93256  -57.24  0.93136  -57.12  0.09841  -36.60
2060.861  0.09377  -36.97  0.92937  -57.53  0.93255  -57.56  0.09556  -37.55
2061.662  0.09305  -37.52  0.93136  -57.13  0.93126  -57.35  0.09210  -38.23
2062.462  0.09400  -38.25  0.92954  -57.86  0.92972  -57.97  0.09181  -38.83
2063.263  0.09180  -38.47  0.93043  -57.32  0.92949  -57.41  0.09181  -39.09
2064.064  0.09063  -39.73  0.92879  -57.32  0.92921  -57.60  0.09010  -39.67
2064.865  0.08907  -40.41  0.92692  -57.53  0.92617  -57.38  0.08865  -40.27
2065.666  0.08512  -41.26  0.92831  -57.50  0.92831  -57.67  0.08624  -41.19
2066.466  0.08659  -41.58  0.92587  -57.69  0.92701  -57.81  0.08596  -42.01
2067.267  0.08304  -43.00  0.92628  -57.28  0.92626  -57.29  0.08302  -42.97
2068.068  0.08379  -43.46  0.92628  -57.57  0.92796  -57.75  0.08411  -43.73
2068.869  0.08284  -44.10  0.92603  -57.56  0.92515  -57.25  0.08252  -43.33
2069.670  0.07948  -44.83  0.92482  -57.20  0.92593  -57.61  0.07884  -45.15
2070.470  0.07951  -45.28  0.92589  -57.21  0.92610  -57.39  0.07880  -45.78
2071.271  0.07646  -47.53  0.92520  -57.45  0.92516  -57.41  0.07672  -47.53
2072.072  0.07623  -47.08  0.92480  -56.93  0.92437  -57.03  0.07526  -47.74
2072.873  0.07498  -47.75  0.92404  -57.13  0.92362  -57.37  0.07374  -48.30
2073.674  0.07337  -48.07  0.92393  -57.33  0.92439  -57.77  0.07241  -49.25
2074.474  0.07097  -50.91  0.92361  -56.78  0.92304  -56.95  0.07257  -50.04
2075.275  0.07024  -51.60  0.92193  -56.98  0.92188  -57.28  0.07007  -51.26
2076.076  0.06848  -52.22  0.92536  -56.94  0.92487  -57.04  0.06911  -52.24
2076.877  0.06638  -54.33  0.92349  -57.25  0.92279  -57.82  0.06595  -55.14
2077.678  0.06558  -54.81  0.92371  -57.42  0.92416  -57.26  0.06663  -53.69
2078.478  0.06209  -58.34  0.92239  -56.83  0.92425  -56.87  0.06280  -58.17
2079.279  0.06353  -55.97  0.92509  -57.26  0.92467  -56.75  0.06404  -56.12
2080.080  0.06115  -60.14  0.92352  -57.33  0.92177  -57.68  0.06043  -61.64
2080.881  0.05820  -62.84  0.91814  -57.03  0.92092  -57.01  0.06006  -61.41
2081.682  0.05768  -62.16  0.92470  -57.46  0.92355  -57.24  0.05833  -60.53
2082.482  0.05700  -62.36  0.92259  -57.48  0.92224  -57.47  0.05759  -61.59
2083.283  0.05562  -65.73  0.92412  -57.28  0.92207  -57.32  0.05600  -64.79
2084.084  0.05392  -67.17  0.92261  -56.96  0.92259  -56.91  0.05394  -68.20
2084.885  0.05303  -67.52  0.92362  -57.25  0.92503  -56.85  0.05402  -65.26
2085.686  0.05207  -67.87  0.92255  -56.99  0.92173  -56.86  0.05141  -68.96
2086.486  0.05072  -72.29  0.92287  -56.86  0.92303  -56.96  0.05062  -72.64
2087.287  0.04929  -73.69  0.92168  -57.08  0.92368  -56.90  0.04932  -72.48
2088.088  0.04868  -76.50  0.92212  -56.85  0.92258  -56.55  0.04856  -75.24
2088.889  0.04747  -79.61  0.92436  -56.84  0.92374  -56.55  0.04742  -79.66
2089.690  0.04669  -80.67  0.92235  -56.76  0.92152  -56.99  0.04653  -80.97
2090.490  0.04565  -82.52  0.92428  -57.00  0.92341  -57.04  0.04572  -84.47
2091.291  0.04434  -82.88  0.92385  -56.90  0.92482  -57.49  0.04519  -86.81
2092.092  0.04475  -88.84  0.92643  -57.06  0.92560  -57.11  0.04431  -88.35
2092.893  0.04297  -90.14  0.92401  -56.58  0.92277  -56.82  0.04327  -91.58
2093.694  0.04127  -90.58  0.92615  -57.10  0.92567  -57.01  0.04101  -90.94
2094.494  0.04047  -91.95  0.92468  -57.02  0.92417  -57.18  0.04107  -93.53
2095.295  0.04153  -98.41  0.92529  -56.75  0.92593  -56.61  0.04078  -98.40
2096.096  0.04023 -100.08  0.92455  -56.80  0.92393  -56.85  0.03965 -100.03
2096.897  0.03872 -103.70  0.92776  -56.98  0.92624  -57.28  0.03743 -101.41
2097.698  0.04094 -107.73  0.92577  -57.23  0.92522  -57.07  0.04058 -108.15
2098.498  0.03833 -109.37  0.92515  -56.98  0.92542  -56.78  0.03785 -108.32
2099.299  0.03926 -111.53  0.92695  -56.66  0.92758  -57.21  0.04024 -113.08
2100.100  0.04190 -117.59  0.92690  -57.26  0.92645  -57.06  0.04060 -116.73
2100.901  0.03760 -117.52  0.92708  -56.70  0.92755  -57.39  0.03847 -118.95
2101.702  0.03883 -122.03  0.92741  -56.68  0.92799  -57.02  0.03755 -122.34
2102.503  0.03932 -124.56  0.92855  -56.72  0.92871  -56.85  0.03805 -125.17
2103.303  0.03961 -127.86  0.92799  -56.41  0.92819  -56.67  0.03943 -128.60
2104.104  0.04076 -131.08  0.93044  -56.36  0.92894  -56.52  0.04153 -131.06
2104.905  0.04072 -133.66  0.93118  -56.54  0.93158  -56.50  0.03914 -133.86
2105.706  0.04106 -137.12  0.93014  -56.47  0.92897  -56.73  0.04097 -137.02
2106.507  0.04335 -139.31  0.92971  -57.21  0.92979  -56.98  0.04403 -140.09
2107.307  0.04479 -140.98  0.93132  -56.50  0.93031  -57.27  0.04497 -142.16
2108.108  0.04269 -143.98  0.93230  -56.98  0.93157  -56.82  0.04323 -144.01
2108.909  0.04410 -146.75  0.93341  -56.82  0.93307  -56.63  0.04250 -147.88
2109.710  0.04572 -148.28  0.93270  -56.40  0.93293  -56.81  0.04482 -149.62
2110.511  0.04614 -151.43  0.93315  -57.46  0.93372  -57.28  0.04562 -151.62
2111.311  0.04629 -153.01  0.93569  -56.85  0.93574  -56.92  0.04759 -152.54
2112.112  0.04659 -156.23  0.93486  -56.53  0.93401  -56.93  0.04661 -156.41
2112.913  0.04986 -156.43  0.93521  -56.76  0.93408  -56.80  0.04951 -157.14
2113.714  0.04905 -158.94  0.93704  -56.79  0.93704  -56.93  0.04989 -158.57
2114.515  0.05271 -158.24  0.93629  -57.14  0.93651  -57.00  0.05121 -159.98
2115.315  0.05175 -162.62  0.93648  -57.11  0.93517  -57.41  0.05308 -160.96
2116.116  0.05310 -164.40  0.93669  -56.87  0.93767  -56.95  0.05369 -163.91
2116.917  0.05424 -163.87  0.93835  -57.01  0.93870  -57.45  0.05370 -165.91
2117.718  0.05550 -166.08  0.93890  -57.28  0.93852  -57.36  0.05545 -166.89
2118.519  0.05797 -166.54  0.93851  -57.16  0.93863  -57.40  0.05755 -167.67
2119.319  0.05758 -169.20  0.94056  -57.03  0.94012  -57.29  0.05903 -168.11
2120.120  0.05849 -170.63  0.94037  -57.38  0.93963  -57.30  0.05835 -170.69
2120.921  0.05978 -172.56  0.94111  -57.22  0.94111  -57.36  0.06019 -172.08
2121.722  0.06109 -173.90  0.94129  -57.48  0.94111  -57.23  0.06129 -173.02
2122.523  0.06201 -175.12  0.94316  -57.38  0.94149  -58.00  0.06275 -173.51
2123.323  0.06344 -175.16  0.94302  -57.14  0.94226  -57.99  0.06362 -175.19
2124.124  0.06379 -178.30  0.94068  -57.62  0.94142  -57.54  0.06425 -177.18
2124.925  0.06543 -177.32  0.94387  -57.70  0.94281  -57.27  0.06565 -178.00
2125.726  0.06649 -178.58  0.94367  -57.52  0.94424  -57.66  0.06649 -178.26
2126.527  0.06765  178.15  0.94348  -57.46  0.94306  -57.97  0.06822  179.84
2127.327  0.06815  177.05  0.94421  -57.73  0.94461  -57.41  0.06872  177.58
2128.128  0.06961  176.11  0.94480  -57.54  0.94373  -57.87  0.06992  177.45
2128.929  0.07057  179.20  0.94654  -57.82  0.94553  -57.59  0.07113  177.02
2129.730  0.07165  175.63  0.94415  -57.84  0.94471  -57.51  0.07181  176.99
2130.531  0.07317  174.14  0.94665  -57.67  0.94548  -58.00  0.07340  175.20
2131.331  0.07384  174.40  0.94782  -57.62  0.94763  -57.40  0.07363  175.27
2132.132  0.07489  174.82  0.94446  -58.28  0.94533  -58.37  0.07546  173.15
2132.933  0.07616  172.87  0.94827  -58.39  0.94700  -58.52  0.07595  172.12
2133.734  0.07674  171.95  0.94751  -58.27  0.94685  -58.05  0.07703  172.23
2134.535  0.07679  172.99  0.94695  -58.56  0.94589  -58.37  0.07694  172.81
2135.335  0.07878  170.66  0.94767  -58.25  0.94667  -58.49  0.07904  169.80
2136.136  0.07974  169.16  0.94731  -58.04  0.94654  -57.87  0.07913  170.73
2136.937  0.07902  171.42  0.94925  -58.82  0.94743  -58.60  0.08095  168.59
2137.738  0.08061  170.47  0.94891  -58.77  0.94812  -58.86  0.08101  169.29
2138.539  0.08260  166.62  0.94809  -58.18  0.94900  -58.62  0.08106  168.35
2139.339  0.08328  166.29  0.94682  -58.77  0.94786  -58.87  0.08377  166.30
2140.140  0.08501  164.85  0.94804  -58.06  0.94888  -58.82  0.08468  165.09
2140.941  0.08596  163.94  0.94847  -58.57  0.94756  -58.43  0.08548  164.91
2141.742  0.08662  164.16  0.94457  -59.05  0.94533  -59.41  0.08563  164.71
2142.543  0.08673  164.23  0.94937  -58.79  0.94956  -58.81  0.08677  164.48
2143.343  0.08815  162.66  0.94770  -58.20  0.94586  -58.16  0.08795  162.91
2144.144  0.08752  162.46  0.94810  -58.98  0.94519  -58.77  0.08776  162.67
2144.945  0.08625  163.13  0.94745  -58.92  0.94817  -58.98  0.08646  162.73
2145.746  0.08801  162.41  0.94833  -59.13  0.94807  -59.05  0.08925  161.53
2146.547  0.08971  160.68  0.94590  -59.36  0.94633  -59.75  0.09033  159.94
2147.347  0.09208  159.14  0.94806  -58.71  0.94760  -58.77  0.09031  160.23
2148.148  0.09178  159.46  0.94685  -58.70  0.94619  -59.27  0.09137  159.47
2148.949  0.09208  158.59  0.94842  -58.78  0.94783  -59.13  0.09231  158.67
2149.750  0.09170  158.23  0.94776  -59.34  0.94755  -58.85  0.09229  157.88
2150.551  0.09227  157.46  0.94454  -59.41  0.94571  -58.98  0.09273  157.55
2151.351  0.09345  156.82  0.94493  -59.25  0.94441  -59.39  0.09466  156.29
2152.152  0.09503  155.40  0.94454  -59.27  0.94426  -59.10  0.09347  156.27
2152.953  0.09379  155.61  0.94478  -59.52  0.94394  -59.48  0.09474  155.35
2153.754  0.09468  154.85  0.94555  -59.23  0.94489  -59.32  0.09547  154.60
2154.555  0.09300  154.89  0.94298  -59.08  0.94454  -59.30  0.09278  154.52
2155.355  0.09602  153.53  0.94299  -59.31  0.94395  -59.78  0.09708  152.77
2156.156  0.09525  152.69  0.94167  -59.73  0.94143  -60.16  0.09528  152.65
2156.957  0.09510  151.71  0.94127  -59.64  0.94272  -60.00  0.09572  151.80
2157.758  0.09699  151.40  0.94326  -59.29  0.94068  -59.88  0.09543  150.65
2158.559  0.09497  150.99  0.94126  -59.42  0.94097  -59.72  0.09510  150.87
2159.359  0.09684  149.99  0.94078  -59.55  0.94115  -59.81  0.09699  149.85
2160.160  0.09727  149.19  0.94146  -59.65  0.94128  -59.68  0.09885  149.20
2160.961  0.09691  149.00  0.94110  -59.42  0.94000  -59.79  0.09730  148.66
2161.762  0.09864  148.00  0.94016  -60.06  0.94004  -59.93  0.09891  147.87
2162.563  0.10015  147.15  0.93981  -59.98  0.93762  -59.87  0.09820  147.30
2163.363  0.09613  147.13  0.93664  -59.70  0.93969  -59.87  0.09819  147.21
2164.164  0.09690  146.17  0.93653  -60.13  0.93750  -60.20  0.09597  145.88
2164.965  0.09698  145.10  0.93681  -60.34  0.93716  -60.12  0.09744  145.31
2165.766  0.10042  145.13  0.93526  -59.92  0.93717  -59.87  0.10077  144.75
2166.567  0.09781  144.07  0.93393  -60.22  0.93347  -59.95  0.09771  144.24
2167.367  0.09895  143.58  0.93551  -60.46  0.93182  -60.48  0.09811  143.63
2168.168  0.09586  142.09  0.93366  -60.09  0.93384  -60.59  0.09613  141.80
2168.969  0.10048  141.92  0.93254  -60.38  0.93260  -60.46  0.09810  141.66
2169.770  0.09801  141.01  0.93287  -60.11  0.93250  -60.25  0.09901  141.08
2170.571  0.09660  139.88  0.93088  -60.81  0.93153  -60.55  0.09626  139.99
2171.371  0.09848  139.49  0.93053  -59.98  0.92968  -60.13  0.09856  139.73
2172.172  0.09655  138.36  0.93013  -60.00  0.93036  -60.14  0.09684  138.64
2172.973  0.09846  138.62  0.93071  -59.67  0.92914  -60.21  0.09657  137.89
2173.774  0.09533  136.95  0.92876  -60.10  0.92729  -60.45  0.09665  137.31
2174.575  0.09737  136.47  0.92772  -60.38  0.92827  -60.34  0.09839  136.77
2175.375  0.09822  136.50  0.92901  -60.33  0.92896  -60.30  0.09683  135.54
2176.176  0.09499  133.83  0.92847  -60.39  0.92658  -60.27  0.09691  134.82
2176.977  0.09479  133.62  0.92492  -60.82  0.92631  -60.75  0.09595  133.51
2177.778  0.09479  133.24  0.92472  -59.78  0.92518  -60.33  0.09618  133.31
2178.579  0.09550  131.39  0.92493  -60.40  0.92362  -60.49  0.09392  131.17
2179.379  0.09252  129.85  0.92199  -60.17  0.92529  -60.06  0.09461  130.84
2180.180  0.09633  131.43  0.92590  -59.69  0.92277  -60.14  0.09535  131.05
2180.981  0.09394  129.16  0.92370  -60.16  0.92409  -60.06  0.09270  128.12
2181.782  0.09423  128.28  0.92173  -60.17  0.92240  -60.47  0.09364  127.81
2182.583  0.09351  127.23  0.92208  -59.48  0.91945  -59.87  0.09247  127.11
2183.383  0.09294  126.59  0.92174  -60.28  0.92133  -60.38  0.09252  125.38
2184.184  0.09214  123.51  0.92254  -60.40  0.92070  -60.51  0.09340  124.94
2184.985  0.09309  125.12  0.92168  -60.18  0.92239  -60.51  0.09207  123.59
2185.786  0.09231  123.47  0.91843  -59.18  0.92011  -59.52  0.09248  123.39
2186.587  0.08967  119.41  0.91936  -60.65  0.91996  -60.26  0.09106  120.80
2187.387  0.09095  120.89  0.91818  -60.17  0.92029  -60.25  0.09093  120.30
2188.188  0.09103  119.82  0.91987  -59.78  0.91844  -59.95  0.09088  119.67
2188.989  0.09038  118.36  0.91916  -60.20  0.91903  -60.52  0.09039  118.32
2189.790  0.09042  116.84  0.91986  -60.11  0.91982  -60.18  0.09017  116.10
2190.591  0.08923  114.43  0.91936  -60.05  0.91771  -59.89  0.08987  115.79
2191.391  0.08949  113.98  0.91982  -59.84  0.91975  -60.05  0.08954  114.83
2192.192  0.08889  112.97  0.91711  -59.98  0.91907  -60.14  0.08950  112.29
2192.993  0.08853  112.39  0.91877  -59.92  0.91894  -59.43  0.08837  112.19
2193.794  0.08845  109.80  0.91860  -60.13  0.91885  -60.20  0.08873  108.85
2194.595  0.08853  110.62  0.92068  -59.83  0.91772  -59.42  0.08844  109.50
2195.395  0.08799  108.74  0.91678  -59.50  0.91579  -59.83  0.08838  107.16
2196.196  0.08847  106.21  0.91726  -59.90  0.91530  -60.22  0.08842  105.47
2196.997  0.08866  104.37  0.91655  -60.05  0.91502  -59.90  0.08784  104.50
2197.798  0.08742  105.32  0.91705  -59.63  0.91658  -59.77  0.08675  104.35
2198.599  0.08812  102.69  0.91846  -59.52  0.91424  -59.34  0.08567  100.93
2199.399  0.08848  100.09  0.91667  -59.47  0.91548  -59.28  0.08673  100.19
2200.200  0.08614  102.13  0.91804  -59.29  0.91481  -59.45  0.08578   99.87
2201.001  0.08852   98.68  0.91712  -59.43  0.91652  -59.42  0.08732   98.46
2201.802  0.08611   98.18  0.91347  -59.22  0.91250  -60.28  0.08705   97.98
2202.603  0.08923   95.86  0.92181  -60.23  0.91718  -59.48  0.08706   96.57
2203.403  0.08844   93.34  0.91490  -59.84  0.91985  -59.78  0.08780   94.09
2204.204  0.08805   93.72  0.92013  -59.44  0.91695  -59.67  0.08662   93.64
2205.005  0.08656   92.53  0.91524  -59.45  0.92304  -59.01  0.08861   92.79
2205.806  0.08631   90.47  0.91737  -59.36  0.91668  -59.47  0.08682   90.17
